 ****** HSPICE -- N-2017.12 linux64 (Nov 21 2017) ******                        
  Copyright (c) 1986 - 2018 by Synopsys, Inc. All Rights Reserved.              
  This software and the associated documentation are proprietary
  to Synopsys, Inc. This software may only be used in accordance
  with the terms and conditions of a written license agreement with
  Synopsys, Inc. All other use, reproduction, or distribution of
  this software is strictly prohibited.
  Input File: testbench_xor_pex.sp                                              
  Command line options: /usr/cad/synopsys/hspice/cur/hspice/linux64/hspice testbench_xor_pex.sp -o testbench_xor_pex.list
 lic:  
 lic: FLEXlm: SDK_11.6.8.3 
 lic: USER:   vlsi1812             HOSTNAME: vlsicad9 
 lic: HOSTID: "e61f1348decb"       PID:      7409 
 lic: Using FLEXlm license file: 
 lic: 26585@lsncku 
 lic: Checkout 1 hspice 
 lic: License/Maintenance for hspice will expire on 14-may-2019/2017.12 
 lic: 90(in_use)/90(total) FLOATING license(s) on SERVER 26585@lsncku 
 lic:   
  **warning** (xor.pex.netlist:7) Global net name, "gnd", in subckt pin list. The pin will be connected to the local net. Recommend to not use global net names in subckt pin lists.
1****** HSPICE -- N-2017.12 linux64 (Nov 21 2017) ******                        
 ******  
 *** testbench ***

 ****** circuit name directory
 circuit number to circuit name directory
   number circuitname                     definition         multiplier
        0 main circuit
        1 xname.                          xor                1.00 
        2 xname.x_pm_xor%b_.              pm_xor%b_          1.00 
        3 xname.x_pm_xor%b.               pm_xor%b           1.00 
        4 xname.x_pm_xor%y.               pm_xor%y           1.00 
        5 xname.x_pm_xor%a.               pm_xor%a           1.00 
        6 xname.x_pm_xor%a_.              pm_xor%a_          1.00 
        7 xname.x_pm_xor%noxref_6.        pm_xor%noxref_6    1.00 
        8 xname.x_pm_xor%noxref_7.        pm_xor%noxref_7    1.00 
        9 xname.x_pm_xor%noxref_8.        pm_xor%noxref_8    1.00 
       10 xname.x_pm_xor%gnd.             pm_xor%gnd         1.00 
       11 xname.x_pm_xor%vdd.             pm_xor%vdd         1.00 
  **info** (testbench_xor_pex.sp:27) DC voltage reset to initial transient source value in source 0:v3. new dc=0.0000D+00
 

  
      
 *****************************************************************
 ******  option summary
 ******
 runlvl  = 3         bypass  = 2.0000    
             
 Summary of Linear Res Distribution Info
 ---------------------------------------
 |Range          |Total     |Percent(%)|
 |---------------+----------+----------|
 |1e-04  ~  1e-03|1         |0.3030    |
 |1e-03  ~  1e-02|9         |2.7273    |
 |1e-02  ~  1e-01|84        |25.4545   |
 |1e-01  ~  1e+00|54        |16.3636   |
 |1e+00  ~  1e+03|182       |55.1515   |
 ---------------------------------------
              
             
 Summary of Linear Cap Distribution Info
 ---------------------------------------
 |Range          |Total     |Percent(%)|
 |---------------+----------+----------|
 |1e-22  ~  1e-21|1         |1.0204    |
 |1e-20  ~  1e-19|1         |1.0204    |
 |1e-19  ~  1e-18|1         |1.0204    |
 |1e-18  ~  1e-17|8         |8.1633    |
 |1e-17  ~  1e-16|29        |29.5918   |
 |1e-16  ~  1e-15|46        |46.9388   |
 |1e-15  ~  1e-14|12        |12.2449   |
 ---------------------------------------
              
             
 Summary of Detailed RC Type Statistics
 -------------------------
 |Element Type|Number    |
 |------------+----------|
 |Constant Res|330       |
 |            |          |
 |Constant Cap|98        |
 -------------------------
              
  Opening plot unit= 15
 file=testbench_xor_pex.list.pa0

 **info** dc convergence successful at Newton-Raphson method 
 ******  
 *** testbench ***

 ****** operating point information tnom=  25.000 temp=  25.000 ******
 ****** operating point status is all       simulation time is     0.     
     node    =voltage       node    =voltage       node    =voltage

 + 0:0v      =   0.       0:a       =   0.       0:a_      =   1.8000 
 + 0:b       =   1.8000   0:b_      =  11.4736n  0:vdd     =   1.8000 
 + 0:y       =   1.8000   1:n_a__m10=   1.8000   1:n_a__m11=   1.8000 
 + 1:n_a__m4_=   1.8000   1:n_a__m5_=   1.8000   1:n_a_m11_=   0.     
 + 1:n_a_m1_g=   0.       1:n_a_m5_g=   0.       1:n_a_m7_g=   0.     
 + 1:n_b__m0_=  11.2489n  1:n_b__m2_=  11.4740n  1:n_b__m6_=  11.5921n
 + 1:n_b__m8_=  11.4740n  1:n_b_m0_g=   1.8000   1:n_b_m3_g=   1.8000 
 + 1:n_b_m6_g=   1.8000   1:n_b_m9_g=   1.8000   1:n_gnd_m0=  75.1239p
 + 1:n_gnd_m0= 292.4135p  1:n_gnd_m3= 895.6803p  1:n_gnd_m4= 893.2874p
 + 1:n_gnd_m5= 523.8544p  1:n_noxref=   1.8000   1:n_noxref=   1.8000 
 + 1:n_noxref=   1.8000   1:n_noxref=   1.8000   1:n_noxref=  24.2131n
 + 1:n_noxref=  23.8413n  1:n_noxref=  23.6396n  1:n_noxref=  23.2767n
 + 1:n_vdd_m1=   1.8000   1:n_vdd_m1=   1.8000   1:n_vdd_m1=   1.8000 
 + 1:n_vdd_m6=   1.8000   1:n_vdd_m6=   1.8000   1:n_vdd_m7=   1.8000 
 + 1:n_vdd_m7=   1.8000   1:n_y_m1_d=   1.8000   1:n_y_m2_s=   1.8000 
 + 1:n_y_m8_d=   1.8000   1:n_y_m9_s=   1.8000   2:2       =  11.4740n
 + 2:3       =  11.4740n  2:5       =  11.4740n  2:6       =  11.4740n
 + 2:11      =  11.5676n  2:12      =  11.4808n  2:16      =  11.2979n
 + 2:17      =  11.4715n  2:19      =  11.4740n  2:26      =  11.4740n
 + 2:28      =  11.4740n  2:30      =  11.4740n  2:31      =  11.4740n
 + 2:34      =  11.4740n  2:35      =  11.4740n  2:36      =  11.4740n
 + 3:2       =   1.8000   3:3       =   1.8000   3:4       =   1.8000 
 + 3:5       =   1.8000   3:7       =   1.8000   3:10      =   1.8000 
 + 3:14      =   1.8000   3:18      =   1.8000   3:25      =   1.8000 
 + 3:28      =   1.8000   3:31      =   1.8000   3:32      =   1.8000 
 + 3:33      =   1.8000   3:35      =   1.8000   3:39      =   1.8000 
 + 3:41      =   1.8000   4:7       =   1.8000   4:9       =   1.8000 
 + 4:10      =   1.8000   4:13      =   1.8000   4:14      =   1.8000 
 + 4:16      =   1.8000   4:20      =   1.8000   4:21      =   1.8000 
 + 4:25      =   1.8000   4:26      =   1.8000   4:34      =   1.8000 
 + 5:2       =   0.       5:3       =   0.       5:6       =   0.     
 + 5:12      =   0.       5:16      =   0.       5:20      =   0.     
 + 5:22      =   0.       5:23      =   0.       5:25      =   0.     
 + 5:26      =   0.       5:28      =   0.       5:31      =   0.     
 + 5:35      =   0.       6:2       =   1.8000   6:4       =   1.8000 
 + 6:5       =   1.8000   6:6       =   1.8000   6:7       =   1.8000 
 + 6:13      =   1.8000   6:14      =   1.8000   6:15      =   1.8000 
 + 6:16      =   1.8000   6:19      =   1.8000   6:20      =   1.8000 
 + 6:24      =   1.8000   6:25      =   1.8000   6:27      =   1.8000 
 + 6:31      =   1.8000   6:35      =   1.8000   6:38      =   1.8000 
 + 6:39      =   1.8000   6:42      =   1.8000   6:45      =   1.8000 
 + 7:5       =   1.8000   8:5       =   1.8000   9:2       =  23.7527n
 + 9:4       =  23.7469n  9:5       =  23.7519n  9:6       =  23.7461n
 + 9:9       =  23.7406n  9:10      =  23.7349n  9:11      =  23.7397n
 + 9:13      =  23.7340n  9:16      =  24.1130n  9:17      =  23.7555n
 + 9:22      =  23.7405n  9:23      =  23.7433n  9:26      =  23.3767n
 + 9:27      =  23.7313n  9:30      =  23.7548n  9:33      =  23.7441n
 + 9:34      =  23.7425n  9:37      =  23.7321n 10:4       =  60.9135p
 +10:5       =  63.5429p 10:6       =  45.7032p 10:7       =  60.3780p
 +10:8       =  52.3909p 10:9       =  57.1116p 10:10      =  46.7452p
 +10:11      =  50.5035p 10:14      =  60.8886p 10:15      =  66.4808p
 +10:16      =  66.4013p 10:17      =  66.0632p 10:18      =  66.3773p
 +10:19      =  45.4966p 10:22      =  15.3084p 10:23      =  43.8666p
 +10:24      =  43.0310p 10:25      =  58.1734p 10:26      =  58.0072p
 +10:27      =  57.3159p 10:28      =  57.9604p 10:31      =  63.7990p
 +10:32      =  63.7570p 10:35      =  63.9406p 10:38      =  64.6581p
 +10:39      =  63.7561p 10:41      =  65.5244p 10:42      =  65.1942p
 +10:44      =  69.2380p 10:45      =  66.4849p 10:49      =  68.3021p
 +10:50      =  66.5719p 10:52      =  66.8329p 10:53      =  66.5844p
 +10:55      =  66.6222p 10:56      =  66.5862p 10:58      =  66.6032p
 +10:59      =  66.5864p 10:62      =  59.4688p 10:63      =  58.5555p
 +10:66      =  64.0949p 10:67      =  58.5162p 10:71      =  64.0890p
 +10:72      =  58.3586p 10:74      =  54.7893p 10:75      =  50.5215p
 +10:77      =  52.5365p 10:78      =  50.5349p 10:81      =  47.2284p
 +10:82      =  46.2763p 10:85      =  52.0508p 10:86      =  51.8319p
 +10:88      =  56.0050p 10:89      =  55.5294p 10:91      =  63.5423p
 +10:92      =  58.1705p 10:96      =  61.7367p 10:97      =  58.3413p
 +10:99      =  58.8534p 10:100     =  58.3658p 10:102     =  58.4399p
 +10:103     =  58.3693p 10:105     =  58.4027p 10:106     =  58.3696p
 +10:110     = 243.8244p 10:111     =  70.2481p 10:116     = 794.0231p
 +10:117     =  79.1018p 10:120     = 423.3967p 10:121     =  65.9357p
 +10:125     =  58.7846p 10:130     =  63.7566p 10:133     =  64.7413p
 +10:141     =  58.3911p 10:145     =  50.5315p 11:4       =   1.8000 
 +11:5       =   1.8000  11:6       =   1.8000  11:7       =   1.8000 
 +11:8       =   1.8000  11:9       =   1.8000  11:10      =   1.8000 
 +11:11      =   1.8000  11:14      =   1.8000  11:15      =   1.8000 
 +11:18      =   1.8000  11:19      =   1.8000  11:20      =   1.8000 
 +11:21      =   1.8000  11:22      =   1.8000  11:23      =   1.8000 
 +11:24      =   1.8000  11:25      =   1.8000  11:26      =   1.8000 
 +11:27      =   1.8000  11:28      =   1.8000  11:34      =   1.8000 
 +11:35      =   1.8000  11:39      =   1.8000  11:40      =   1.8000 
 +11:44      =   1.8000  11:45      =   1.8000  11:49      =   1.8000 
 +11:50      =   1.8000  11:53      =   1.8000  11:57      =   1.8000 
 +11:58      =   1.8000  11:60      =   1.8000  11:61      =   1.8000 
 +11:63      =   1.8000  11:64      =   1.8000  11:67      =   1.8000 
 +11:70      =   1.8000  11:71      =   1.8000  11:73      =   1.8000 
 +11:74      =   1.8000  11:76      =   1.8000  11:77      =   1.8000 
 +11:80      =   1.8000  11:81      =   1.8000  11:84      =   1.8000 
 +11:85      =   1.8000  11:87      =   1.8000  11:88      =   1.8000 
 +11:90      =   1.8000  11:91      =   1.8000  11:95      =   1.8000 
 +11:96      =   1.8000  11:98      =   1.8000  11:99      =   1.8000 
 +11:101     =   1.8000  11:102     =   1.8000  11:104     =   1.8000 
 +11:105     =   1.8000  11:108     =   1.8000  11:109     =   1.8000 
 +11:112     =   1.8000  11:113     =   1.8000  11:115     =   1.8000 
 +11:116     =   1.8000  11:119     =   1.8000  11:122     =   1.8000 
 +11:123     =   1.8000  11:125     =   1.8000  11:126     =   1.8000 
 +11:128     =   1.8000  11:129     =   1.8000  11:131     =   1.8000 
 +11:139     =   1.8000  11:140     =   1.8000  11:142     =   1.8000 
 +11:143     =   1.8000  11:146     =   1.8000  11:150     =   1.8000 
 +11:160     =   1.8000  11:162     =   1.8000 


 **** voltage sources

 subckt                                                  
 element   0:v1        0:v2        0:v3        0:v4      
  volts       1.8000      0.          0.          1.8000 
  current   -81.8243p    81.8243p     0.        -16.4035f
  power     147.2838p     0.          0.         29.5264f

     total voltage source power dissipation=  147.3133p       watts



 **** resistors

 subckt    xname.x_pm  xname.x_pm  xname.x_pm  xname.x_pm  xname.x_pm
 element   2:r9        2:r10       2:r11       2:r12       2:r13     
  r value    32.9450m     8.0000     35.8974m     8.0000      5.1731 
  v drop    1.654e-24     0.        381.5008f   1.770e-22  -1.654e-24
  current   5.022e-23     0.         10.6275p   2.213e-23  -3.198e-25
  power       0.          0.        4.054e-24     0.          0.     

 subckt    xname.x_pm  xname.x_pm  xname.x_pm  xname.x_pm  xname.x_pm
 element   2:r14       2:r15       2:r16       2:r17       2:r18     
  r value    13.2552    473.2500      4.7136     70.2500    201.9230m
  v drop      0.          0.       -1.654e-24  -1.323e-23    -2.1459p
  current     0.          0.       -3.510e-25  -1.884e-25   -10.6275p
  power       0.          0.          0.          0.        2.281e-23

 subckt    xname.x_pm  xname.x_pm  xname.x_pm  xname.x_pm  xname.x_pm
 element   2:r19       2:r20       2:r21       2:r22       2:r23     
  r value    16.3327      4.6080    640.7690m     8.1663      2.3040 
  v drop   -173.5763p   -48.9717p     6.8098p    86.7882p    24.4858p
  current   -10.6275p   -10.6275p    10.6275p    10.6275p    10.6275p
  power     1.845e-21   5.204e-22   7.237e-23   9.223e-22   2.602e-22

 subckt    xname.x_pm  xname.x_pm  xname.x_pm  xname.x_pm  xname.x_pm
 element   2:r24       2:r25       2:r26       2:r27       2:r28     
  r value     1.2505      1.0953     36.7168m    36.3416m   448.6730m
  v drop    2.647e-23  -4.301e-23     0.          0.        8.272e-24
  current   2.117e-23  -3.927e-23     0.          0.        1.844e-23
  power       0.          0.          0.          0.          0.     

 subckt    xname.x_pm  xname.x_pm  xname.x_pm  xname.x_pm  xname.x_pm
 element   3:r13       3:r14       3:r15       3:r16       3:r17     
  r value    34.2789m     8.0000      8.0000      5.0878     13.2552 
  v drop   -222.0446a  -130.5622f   222.0446a  -444.0892a   222.0446a
  current    -6.4776f   -16.3203f    27.7556a   -87.2853a    16.7515a
  power       0.        2.131e-27     0.          0.          0.     

 subckt    xname.x_pm  xname.x_pm  xname.x_pm  xname.x_pm  xname.x_pm
 element   3:r18       3:r19       3:r20       3:r21       3:r22     
  r value     5.7255     13.2552    473.2500      4.7039    119.7500 
  v drop    666.1338a    -1.1102f     0.       -222.0446a   222.0446a
  current   116.3445a   -83.7575a     0.        -47.2043a     1.8542a
  power       0.          0.          0.          0.          0.     

 subckt    xname.x_pm  xname.x_pm  xname.x_pm  xname.x_pm  xname.x_pm
 element   3:r23       3:r24       3:r25       3:r26       3:r27     
  r value     4.7330    112.0000      4.7330    121.2500      1.7474 
  v drop      0.          0.          0.        222.0446a    12.4345f
  current     0.          0.          0.          1.8313a     7.1162f
  power       0.          0.          0.          0.          0.     

 subckt    xname.x_pm  xname.x_pm  xname.x_pm  xname.x_pm  xname.x_pm
 element   3:r28       3:r29       3:r30       3:r31       3:r32     
  r value    36.6288m   471.2500m    33.4705m    36.5102m     1.1936 
  v drop    444.0892a     5.1070f  -444.0892a   444.0892a   -19.9840f
  current    12.1240f    10.8372f   -13.2681f    12.1634f   -16.7421f
  power       0.          0.          0.          0.        3.346e-28

 subckt    xname.x_pm  xname.x_pm  xname.x_pm  xname.x_pm  xname.x_pm
 element   4:r7        4:r8        4:r9        4:r10       4:r11     
  r value    46.5054m    16.3327      4.6080      4.5720      8.1663 
  v drop     -2.2029p  -773.7209p  -109.1460p  -108.2938p   386.8839p
  current   -47.3688p   -47.3725p   -23.6862p   -23.6863p    47.3754p
  power     1.043e-22   3.665e-20   2.585e-21   2.565e-21   1.833e-20

 subckt    xname.x_pm  xname.x_pm  xname.x_pm  xname.x_pm  xname.x_pm
 element   4:r12       4:r13       4:r14       4:r15       4:r16     
  r value     2.3040      2.2860     46.6849m   789.7830m     1.5065 
  v drop    109.1534p     0.         -2.2113p   -37.4116p    71.3607p
  current    47.3756p     0.        -47.3674p   -47.3695p    47.3679p
  power     5.171e-21     0.        1.047e-22   1.772e-21   3.380e-21

 subckt    xname.x_pm  xname.x_pm  xname.x_pm  xname.x_pm  xname.x_pm
 element   4:r17       4:r18       4:r19       4:r20       4:r21     
  r value   247.5760m     8.0000     94.2576m    94.2576m   333.7600m
  v drop      0.          0.         -4.4653p     4.4647p     0.     
  current     0.          0.        -47.3735p    47.3665p     0.     
  power       0.          0.        2.115e-22   2.115e-22     0.     

 subckt    xname.x_pm  xname.x_pm  xname.x_pm  xname.x_pm  xname.x_pm
 element   5:r10       5:r11       5:r12       5:r13       5:r14     
  r value    19.2889m     8.0000      6.1277     13.2552      8.0000 
  v drop      0.          0.          0.          0.          0.     
  current     0.          0.          0.          0.          0.     
  power       0.          0.          0.          0.          0.     

 subckt    xname.x_pm  xname.x_pm  xname.x_pm  xname.x_pm  xname.x_pm
 element   5:r15       5:r16       5:r17       5:r18       5:r19     
  r value    13.2552      4.5270      4.7330    195.0000      4.7330 
  v drop      0.          0.          0.          0.          0.     
  current     0.          0.          0.          0.          0.     
  power       0.          0.          0.          0.          0.     

 subckt    xname.x_pm  xname.x_pm  xname.x_pm  xname.x_pm  xname.x_pm
 element   5:r20       5:r21       5:r22       5:r23       5:r24     
  r value    38.2500    473.2500      5.0067     69.7500     33.1617m
  v drop      0.          0.          0.          0.          0.     
  current     0.          0.          0.          0.          0.     
  power       0.          0.          0.          0.          0.     

 subckt    xname.x_pm  xname.x_pm  xname.x_pm  xname.x_pm  xname.x_pm
 element   5:r25       5:r26       6:r12       6:r13       6:r14     
  r value    33.2917m     5.5467     33.8248m     8.0000     13.2552 
  v drop      0.          0.          0.          0.        222.0446a
  current     0.          0.          0.          0.         16.7515a
  power       0.          0.          0.          0.          0.     

 subckt    xname.x_pm  xname.x_pm  xname.x_pm  xname.x_pm  xname.x_pm
 element   6:r15       6:r16       6:r17       6:r18       6:r19     
  r value     5.1894      4.7330     46.7500      4.7330    403.0000 
  v drop    444.0892a     0.       -222.0446a   222.0446a  -222.0446a
  current    85.5769a     0.         -4.7496a    46.9138a  -5.510e-19
  power       0.          0.          0.          0.          0.     

 subckt    xname.x_pm  xname.x_pm  xname.x_pm  xname.x_pm  xname.x_pm
 element   6:r20       6:r21       6:r22       6:r23       6:r24     
  r value   332.7690m    16.3327      4.5900      8.1663      2.2950 
  v drop     -7.8819p  -386.8630p  -108.7201p   193.4490p    54.3652p
  current   -23.6859p   -23.6864p   -23.6863p    23.6886p    23.6885p
  power     1.867e-22   9.163e-21   2.575e-21   4.583e-21   1.288e-21

 subckt    xname.x_pm  xname.x_pm  xname.x_pm  xname.x_pm  xname.x_pm
 element   6:r25       6:r26       6:r27       6:r28       6:r29     
  r value   236.2050m   228.8460m    36.2786m    36.5897m     8.0000 
  v drop     -5.5951p     5.4201p  -859.5347f   866.6401f    31.7524f
  current   -23.6874p    23.6845p   -23.6926p    23.6854p     3.9690f
  power     1.325e-22   1.284e-22   2.036e-23   2.053e-23   1.260e-28

 subckt    xname.x_pm  xname.x_pm  xname.x_pm  xname.x_pm  xname.x_pm
 element   6:r30       6:r31       6:r32       6:r33       6:r34     
  r value    32.2421m     2.0196     35.2457m   952.2170m    36.4883m
  v drop   -222.0446a     4.2188f  -222.0446a     3.5527f     0.     
  current    -6.8868f     2.0890f    -6.2999f     3.7310f     0.     
  power       0.          0.          0.          0.          0.     

 subckt    xname.x_pm  xname.x_pm  xname.x_pm  xname.x_pm  xname.x_pm
 element   6:r35       7:r1        7:r2        8:r1        8:r2      
  r value     3.1729      2.3040      2.2860      2.3040      2.2860 
  v drop     13.3227f   109.1534p  -108.3005p   444.0892a     0.     
  current     4.1989f    47.3756p   -47.3755p   192.7471a     0.     
  power       0.        5.171e-21   5.131e-21     0.          0.     

